
T2104 000:059 SEGGER J-Link V4.58a Log File (0001ms, 0060ms total)
T2104 000:059 DLL Compiled: Dec  5 2012 18:38:08 (0001ms, 0060ms total)
T2104 000:059 Logging started @ 2019-03-04 06:42 (0001ms, 0060ms total)
T2104 000:060 JLINK_SetWarnOutHandler(...) (0000ms, 0060ms total)
T2104 000:060 JLINK_OpenEx(...)
Firmware: J-Link ARM-OB STM32 compiled Aug 22 2012 19:52:04
Hardware: V7.00
S/N: 20090928
Feature(s): RDI,FlashDL,FlashBP,JFlash,GDBFull  returns O.K. (0012ms, 0072ms total)
T2104 000:072 JLINK_SetErrorOutHandler(...) (0000ms, 0072ms total)
T2104 000:072 JLINK_ExecCommand("ProjectFile = "G:\机器\易煞婀ぷ骰阕\三月\步兵程序船新版本\yaw_fdb_encoder\MDK-ARM\JLinkSettings.ini"", ...)
                JLINK_AddMirrorAreaEx(Addr = 0x00000000, Size = 0x00000000) (0000ms, 0000ms total)
              Device "UNSPECIFIED" selected (0 KB flash, 0 KB RAM).  returns 0x00 (0003ms, 0075ms total)
T2104 000:087 JLINK_ExecCommand("Device = STM32F427II", ...)
                JLINK_AddMirrorAreaEx(Addr = 0x00000000, Size = 0x00000000) (0000ms, 0000ms total)
              Device "UNSPECIFIED" selected (0 KB flash, 0 KB RAM).  returns 0x00 (0010ms, 0085ms total)
T2104 000:097 JLINK_ExecCommand("DisableConnectionTimeout", ...)  returns 0x00 (0000ms, 0085ms total)
T2104 000:097 JLINK_GetHardwareVersion()  returns 0x11170 (0000ms, 0085ms total)
T2104 000:097 JLINK_GetDLLVersion()  returns 45801 (0000ms, 0085ms total)
T2104 000:097 JLINK_GetFirmwareString(...) (0000ms, 0085ms total)
T2104 000:111 JLINK_GetDLLVersion()  returns 45801 (0000ms, 0085ms total)
T2104 000:111 JLINK_GetCompileDateTime() (0000ms, 0085ms total)
T2104 000:115 JLINK_GetFirmwareString(...) (0000ms, 0085ms total)
T2104 000:118 JLINK_GetHardwareVersion()  returns 0x11170 (0000ms, 0085ms total)
T2104 000:134 JLINK_TIF_Select(JLINKARM_TIF_SWD)  returns 0x00 (0000ms, 0085ms total)
T2104 000:134 JLINK_SetSpeed(5000) (0001ms, 0086ms total)
T2104 000:135 JLINK_GetId() >0x108 TIF>Found SWD-DP with ID 0x2BA01477 >0x0D TIF> >0x21 TIF> >0x0D TIF> >0x28 TIF> >0x0D TIF> >0x28 TIF> >0x0D TIF> >0x21 TIF> >0x0D TIF> >0x21 TIF> >0x0D TIF> >0x28 TIF> >0x0D TIF> >0x21 TIF> >0x0D TIF> >0x21 TIF> >0x0D TIF> >0x21 TIF> >0x0D TIF> >0x21 TIF> >0x0D TIF> >0x21 TIF> >0x0D TIF> >0x28 TIF> >0x0D TIF> >0x28 TIF> >0x0D TIF> >0x21 TIF> >0x0D TIF> >0x21 TIF> >0x0D TIF> >0x28 TIF> >0x0D TIF> >0x21 TIF> >0x0D TIF> >0x21 TIF> >0x0D TIF> >0x28 TIF> >0x0D TIF>
 >0x28 TIF> >0x0D TIF> >0x28 TIF> >0x0D TIF> >0x21 TIF> >0x0D TIF> >0x21 TIF> >0x0D TIF> >0x28 TIF> >0x0D TIF> >0x28 TIF> >0x0D TIF> >0x28 TIF> >0x0D TIF> >0x21 TIF> >0x0D TIF> >0x21 TIF> >0x0D TIF> >0x21 TIF>TPIU fitted.ETM fitted. >0x0D TIF> >0x28 TIF> >0x0D TIF> >0x21 TIF> >0x0D TIF> >0x21 TIF> >0x0D TIF> >0x28 TIF> >0x0D TIF> >0x21 TIF> >0x0D TIF> >0x21 TIF>FPUnit: 6 code (BP) slots and 2 literal slots >0x0D TIF> >0x28 TIF> >0x0D TIF> >0x21 TIF> >0x0D TIF> >0x21 TIF> >0x0D TIF> >0x28 TIF> >0x0D TIF>
 >0x21 TIF> >0x0D TIF> >0x21 TIF> >0x0D TIF> >0x28 TIF> >0x0D TIF> >0x21 TIF> >0x0D TIF> >0x21 TIF> >0x0D TIF> >0x28 TIF> >0x0D TIF> >0x21 TIF> >0x0D TIF> >0x21 TIF>Found Cortex-M4 r0p1, Little endian. >0x0D TIF> >0x21 TIF>  returns 0x2BA01477 (0043ms, 0129ms total)
T2104 000:178 JLINK_GetDLLVersion()  returns 45801 (0000ms, 0129ms total)
T2104 000:178 JLINK_CORE_GetFound()  returns 0xE0000FF (0000ms, 0129ms total)
T2104 000:181 JLINK_ReadMem (0xE00FF000, 0x0020 Bytes, ...) -- CPU is running -- CPU_ReadMem(32 bytes @ 0xE00FF000) -- Data:  03 F0 F0 FF 03 20 F0 FF 03 30 F0 FF 03 10 F0 FF ...  returns 0x00 (0001ms, 0130ms total)
T2104 000:182 JLINK_ReadMem (0xE000EFF0, 0x0010 Bytes, ...) -- CPU is running -- CPU_ReadMem(16 bytes @ 0xE000EFF0) -- Data:  0D 00 00 00 E0 00 00 00 05 00 00 00 B1 00 00 00  returns 0x00 (0001ms, 0131ms total)
T2104 000:183 JLINK_ReadMem (0xE000EFD0, 0x0020 Bytes, ...) -- CPU is running -- CPU_ReadMem(32 bytes @ 0xE000EFD0) -- Data:  04 00 00 00 00 00 00 00 00 00 00 00 00 00 00 00 ...  returns 0x00 (0001ms, 0132ms total)
T2104 000:184 JLINK_ReadMem (0xE0001FF0, 0x0010 Bytes, ...) -- CPU is running -- CPU_ReadMem(16 bytes @ 0xE0001FF0) -- Data:  0D 00 00 00 E0 00 00 00 05 00 00 00 B1 00 00 00  returns 0x00 (0001ms, 0133ms total)
T2104 000:185 JLINK_ReadMem (0xE0001FD0, 0x0020 Bytes, ...) -- CPU is running -- CPU_ReadMem(32 bytes @ 0xE0001FD0) -- Data:  04 00 00 00 00 00 00 00 00 00 00 00 00 00 00 00 ...  returns 0x00 (0000ms, 0133ms total)
T2104 000:185 JLINK_ReadMem (0xE0002FF0, 0x0010 Bytes, ...) -- CPU is running -- CPU_ReadMem(16 bytes @ 0xE0002FF0) -- Data:  0D 00 00 00 E0 00 00 00 05 00 00 00 B1 00 00 00  returns 0x00 (0001ms, 0134ms total)
T2104 000:186 JLINK_ReadMem (0xE0002FD0, 0x0020 Bytes, ...) -- CPU is running -- CPU_ReadMem(32 bytes @ 0xE0002FD0) -- Data:  04 00 00 00 00 00 00 00 00 00 00 00 00 00 00 00 ...  returns 0x00 (0001ms, 0135ms total)
T2104 000:187 JLINK_ReadMem (0xE0000FF0, 0x0010 Bytes, ...) -- CPU is running -- CPU_ReadMem(16 bytes @ 0xE0000FF0) -- Data:  0D 00 00 00 E0 00 00 00 05 00 00 00 B1 00 00 00  returns 0x00 (0001ms, 0136ms total)
T2104 000:188 JLINK_ReadMem (0xE0000FD0, 0x0020 Bytes, ...) -- CPU is running -- CPU_ReadMem(32 bytes @ 0xE0000FD0) -- Data:  04 00 00 00 00 00 00 00 00 00 00 00 00 00 00 00 ...  returns 0x00 (0001ms, 0137ms total)
T2104 000:189 JLINK_ReadMem (0xE0040FF0, 0x0010 Bytes, ...) -- CPU is running -- CPU_ReadMem(16 bytes @ 0xE0040FF0) -- Data:  0D 00 00 00 90 00 00 00 05 00 00 00 B1 00 00 00  returns 0x00 (0000ms, 0137ms total)
T2104 000:189 JLINK_ReadMem (0xE0040FD0, 0x0020 Bytes, ...) -- CPU is running -- CPU_ReadMem(32 bytes @ 0xE0040FD0) -- Data:  04 00 00 00 00 00 00 00 00 00 00 00 00 00 00 00 ...  returns 0x00 (0001ms, 0138ms total)
T2104 000:190 JLINK_ReadMem (0xE0041FF0, 0x0010 Bytes, ...) -- CPU is running -- CPU_ReadMem(16 bytes @ 0xE0041FF0) -- Data:  0D 00 00 00 90 00 00 00 05 00 00 00 B1 00 00 00  returns 0x00 (0001ms, 0139ms total)
T2104 000:191 JLINK_ReadMem (0xE0041FD0, 0x0020 Bytes, ...) -- CPU is running -- CPU_ReadMem(32 bytes @ 0xE0041FD0) -- Data:  04 00 00 00 00 00 00 00 00 00 00 00 00 00 00 00 ...  returns 0x00 (0001ms, 0140ms total)
T2104 000:192 JLINK_ReadMemU32(0xE000EF40, 0x0001 Items, ...) -- CPU is running -- CPU_ReadMem(4 bytes @ 0xE000EF40) -- Data:  21 00 11 10  returns 0x01 (0000ms, 0140ms total)
T2104 000:192 JLINK_ReadMemU32(0xE000EF44, 0x0001 Items, ...) -- CPU is running -- CPU_ReadMem(4 bytes @ 0xE000EF44) -- Data:  11 00 00 11  returns 0x01 (0001ms, 0141ms total)
T2104 000:193 JLINK_ReadMemU32(0xE000ED00, 0x0001 Items, ...) -- CPU is running -- CPU_ReadMem(4 bytes @ 0xE000ED00) -- Data:  41 C2 0F 41  returns 0x01 (0000ms, 0141ms total)
T2104 000:193 JLINK_SetResetType(JLINKARM_RESET_TYPE_NORMAL)  returns JLINKARM_RESET_TYPE_NORMAL (0000ms, 0141ms total)
T2104 000:193 JLINK_Reset() -- CPU is running -- CPU_WriteMem(4 bytes @ 0xE000EDF0) -- CPU is running -- CPU_WriteMem(4 bytes @ 0xE000EDFC) >0x35 TIF> -- CPU is running -- CPU_WriteMem(4 bytes @ 0xE000ED0C) -- CPU is running -- CPU_ReadMem(4 bytes @ 0xE000EDF0) -- CPU is running -- CPU_ReadMem(4 bytes @ 0xE000EDF0) -- CPU is running -- CPU_WriteMem(4 bytes @ 0xE000EDF0) -- CPU is running -- CPU_WriteMem(4 bytes @ 0xE000EDFC) -- CPU is running -- CPU_ReadMem(4 bytes @ 0xE000EDF0)
 -- CPU_WriteMem(4 bytes @ 0xE0002000) (0018ms, 0159ms total)
T2104 000:211 JLINK_Halt()  returns 0x00 (0000ms, 0159ms total)
T2104 000:211 JLINK_IsHalted()  returns TRUE (0000ms, 0159ms total)
T2104 000:211 JLINK_ReadMemU32(0xE000EDF0, 0x0001 Items, ...) -- CPU_ReadMem(4 bytes @ 0xE000EDF0) -- Data:  03 00 03 00  returns 0x01 (0001ms, 0160ms total)
T2104 000:212 JLINK_WriteU32(0xE000EDF0, 0xA05F0003) -- CPU_WriteMem(4 bytes @ 0xE000EDF0)  returns 0x00 (0000ms, 0160ms total)
T2104 000:212 JLINK_WriteU32(0xE000EDFC, 0x01000000) -- CPU_WriteMem(4 bytes @ 0xE000EDFC)  returns 0x00 (0001ms, 0161ms total)
T2104 000:229 JLINK_GetHWStatus(...)  returns 0x00 (0000ms, 0161ms total)
T2104 000:240 JLINK_GetNumBPUnits(Type = 0xFFFFFF00)  returns 0x06 (0000ms, 0161ms total)
T2104 000:240 JLINK_GetNumBPUnits(Type = 0xF0)  returns 0x2000 (0000ms, 0161ms total)
T2104 000:240 JLINK_GetNumWPUnits()  returns 0x04 (0000ms, 0161ms total)
T2104 000:249 JLINK_GetSpeed()  returns 0xFA0 (0000ms, 0161ms total)
T2104 000:255 JLINK_ReadMemU32(0xE000E004, 0x0001 Items, ...) -- CPU_ReadMem(4 bytes @ 0xE000E004) -- Data:  02 00 00 00  returns 0x01 (0001ms, 0162ms total)
T2104 000:256 JLINK_ReadMemU32(0xE000E004, 0x0001 Items, ...) -- CPU_ReadMem(4 bytes @ 0xE000E004) -- Data:  02 00 00 00  returns 0x01 (0000ms, 0162ms total)
T2104 000:256 JLINK_WriteMem(0xE0001000, 0x001C Bytes, ...) -- Data:  01 00 00 00 00 00 00 00 00 00 00 00 00 00 00 00 ... -- CPU_WriteMem(28 bytes @ 0xE0001000)  returns 0x1C (0002ms, 0164ms total)
T2104 000:258 JLINK_ReadMem (0xE0001000, 0x001C Bytes, ...) -- CPU_ReadMem(28 bytes @ 0xE0001000) -- Data:  01 00 00 40 00 00 00 00 00 00 00 00 00 00 00 00 ...  returns 0x00 (0000ms, 0164ms total)
T2104 000:258 JLINK_Halt()  returns 0x00 (0000ms, 0164ms total)
T2104 000:258 JLINK_IsHalted()  returns TRUE (0000ms, 0164ms total)
T2104 000:261 JLINK_WriteMem(0x20000000, 0x0198 Bytes, ...) -- Data:  00 BE 0A E0 0D 78 2D 06 68 40 08 24 40 00 00 D3 ... -- CPU_WriteMem(408 bytes @ 0x20000000)  returns 0x198 (0005ms, 0169ms total)
T2104 000:266 JLINK_WriteReg(R0, 0x08000000)  returns 0x00 (0000ms, 0169ms total)
T2104 000:266 JLINK_WriteReg(R1, 0x00B71B00)  returns 0x00 (0000ms, 0169ms total)
T2104 000:266 JLINK_WriteReg(R2, 0x00000001)  returns 0x00 (0000ms, 0169ms total)
T2104 000:266 JLINK_WriteReg(R3, 0x00000000)  returns 0x00 (0001ms, 0170ms total)
T2104 000:267 JLINK_WriteReg(R4, 0x00000000)  returns 0x00 (0000ms, 0170ms total)
T2104 000:267 JLINK_WriteReg(R5, 0x00000000)  returns 0x00 (0000ms, 0170ms total)
T2104 000:267 JLINK_WriteReg(R6, 0x00000000)  returns 0x00 (0000ms, 0170ms total)
T2104 000:267 JLINK_WriteReg(R7, 0x00000000)  returns 0x00 (0000ms, 0170ms total)
T2104 000:267 JLINK_WriteReg(R8, 0x00000000)  returns 0x00 (0000ms, 0170ms total)
T2104 000:267 JLINK_WriteReg(R9, 0x20000194)  returns 0x00 (0000ms, 0170ms total)
T2104 000:267 JLINK_WriteReg(R10, 0x00000000)  returns 0x00 (0000ms, 0170ms total)
T2104 000:267 JLINK_WriteReg(R11, 0x00000000)  returns 0x00 (0000ms, 0170ms total)
T2104 000:267 JLINK_WriteReg(R12, 0x00000000)  returns 0x00 (0000ms, 0170ms total)
T2104 000:267 JLINK_WriteReg(R13, 0x20001000)  returns 0x00 (0000ms, 0170ms total)
T2104 000:267 JLINK_WriteReg(R14, 0x20000001)  returns 0x00 (0000ms, 0170ms total)
T2104 000:267 JLINK_WriteReg(R15, 0x2000005E)  returns 0x00 (0000ms, 0170ms total)
T2104 000:267 JLINK_WriteReg(XPSR, 0x01000000)  returns 0x00 (0000ms, 0170ms total)
T2104 000:267 JLINK_WriteReg(MSP, 0x20001000)  returns 0x00 (0000ms, 0170ms total)
T2104 000:267 JLINK_WriteReg(PSP, 0x20001000)  returns 0x00 (0000ms, 0170ms total)
T2104 000:267 JLINK_WriteReg(CFBP, 0x00000000)  returns 0x00 (0000ms, 0170ms total)
T2104 000:267 JLINK_SetBPEx(Addr = 0x20000000, Type = 0xFFFFFFF2) -- CPU_ReadMem(4 bytes @ 0x20000000) -- CPU_WriteMem(4 bytes @ 0x20000000) -- CPU_ReadMem(4 bytes @ 0x20000000) -- CPU_WriteMem(4 bytes @ 0x20000000) -- CPU_ReadMem(2 bytes @ 0x20000000)  returns 0x00000001 (0003ms, 0173ms total)
T2104 000:270 JLINK_Go() -- CPU_WriteMem(2 bytes @ 0x20000000) -- CPU_WriteMem(4 bytes @ 0xE0002008) -- CPU_WriteMem(4 bytes @ 0xE000200C) -- CPU_WriteMem(4 bytes @ 0xE0002010) -- CPU_WriteMem(4 bytes @ 0xE0002014) -- CPU_WriteMem(4 bytes @ 0xE0002018) -- CPU_WriteMem(4 bytes @ 0xE000201C) (0005ms, 0178ms total)
T2104 000:275 JLINK_IsHalted() -- CPU_ReadMem(2 bytes @ 0x20000000)  returns TRUE (0004ms, 0182ms total)
T2104 000:279 JLINK_ReadReg(R15)  returns 0x20000000 (0000ms, 0178ms total)
T2104 000:279 JLINK_ClrBPEx(BPHandle = 0x00000001)  returns 0x00 (0000ms, 0178ms total)
T2104 000:279 JLINK_ReadReg(R0)  returns 0x00000000 (0000ms, 0178ms total)
T2104 000:279 JLINK_WriteReg(R0, 0x08000000)  returns 0x00 (0000ms, 0178ms total)
T2104 000:279 JLINK_WriteReg(R1, 0x00004000)  returns 0x00 (0000ms, 0178ms total)
T2104 000:279 JLINK_WriteReg(R2, 0x000000FF)  returns 0x00 (0000ms, 0178ms total)
T2104 000:279 JLINK_WriteReg(R3, 0x00000000)  returns 0x00 (0000ms, 0178ms total)
T2104 000:279 JLINK_WriteReg(R4, 0x00000000)  returns 0x00 (0000ms, 0178ms total)
T2104 000:279 JLINK_WriteReg(R5, 0x00000000)  returns 0x00 (0000ms, 0178ms total)
T2104 000:279 JLINK_WriteReg(R6, 0x00000000)  returns 0x00 (0000ms, 0178ms total)
T2104 000:279 JLINK_WriteReg(R7, 0x00000000)  returns 0x00 (0000ms, 0178ms total)
T2104 000:279 JLINK_WriteReg(R8, 0x00000000)  returns 0x00 (0000ms, 0178ms total)
T2104 000:279 JLINK_WriteReg(R9, 0x20000194)  returns 0x00 (0000ms, 0178ms total)
T2104 000:279 JLINK_WriteReg(R10, 0x00000000)  returns 0x00 (0000ms, 0178ms total)
T2104 000:279 JLINK_WriteReg(R11, 0x00000000)  returns 0x00 (0000ms, 0178ms total)
T2104 000:279 JLINK_WriteReg(R12, 0x00000000)  returns 0x00 (0000ms, 0178ms total)
T2104 000:279 JLINK_WriteReg(R13, 0x20001000)  returns 0x00 (0000ms, 0178ms total)
T2104 000:279 JLINK_WriteReg(R14, 0x20000001)  returns 0x00 (0000ms, 0178ms total)
T2104 000:279 JLINK_WriteReg(R15, 0x20000020)  returns 0x00 (0000ms, 0178ms total)
T2104 000:279 JLINK_WriteReg(XPSR, 0x01000000)  returns 0x00 (0001ms, 0179ms total)
T2104 000:280 JLINK_WriteReg(MSP, 0x20001000)  returns 0x00 (0000ms, 0179ms total)
T2104 000:280 JLINK_WriteReg(PSP, 0x20001000)  returns 0x00 (0000ms, 0179ms total)
T2104 000:280 JLINK_WriteReg(CFBP, 0x00000000)  returns 0x00 (0000ms, 0179ms total)
T2104 000:280 JLINK_SetBPEx(Addr = 0x20000000, Type = 0xFFFFFFF2)  returns 0x00000002 (0000ms, 0179ms total)
T2104 000:280 JLINK_Go() (0001ms, 0180ms total)
T2104 000:281 JLINK_IsHalted() -- CPU_ReadMem(2 bytes @ 0x20000000)  returns TRUE (0004ms, 0184ms total)
T2104 000:285 JLINK_ReadReg(R15)  returns 0x20000000 (0000ms, 0180ms total)
T2104 000:285 JLINK_ClrBPEx(BPHandle = 0x00000002)  returns 0x00 (0000ms, 0180ms total)
T2104 000:285 JLINK_ReadReg(R0)  returns 0x00000001 (0000ms, 0180ms total)
T2104 000:285 JLINK_WriteReg(R0, 0x08000000)  returns 0x00 (0000ms, 0180ms total)
T2104 000:285 JLINK_WriteReg(R1, 0x00004000)  returns 0x00 (0000ms, 0180ms total)
T2104 000:285 JLINK_WriteReg(R2, 0x000000FF)  returns 0x00 (0000ms, 0180ms total)
T2104 000:285 JLINK_WriteReg(R3, 0x00000000)  returns 0x00 (0000ms, 0180ms total)
T2104 000:285 JLINK_WriteReg(R4, 0x00000000)  returns 0x00 (0000ms, 0180ms total)
T2104 000:285 JLINK_WriteReg(R5, 0x00000000)  returns 0x00 (0000ms, 0180ms total)
T2104 000:285 JLINK_WriteReg(R6, 0x00000000)  returns 0x00 (0000ms, 0180ms total)
T2104 000:285 JLINK_WriteReg(R7, 0x00000000)  returns 0x00 (0000ms, 0180ms total)
T2104 000:285 JLINK_WriteReg(R8, 0x00000000)  returns 0x00 (0000ms, 0180ms total)
T2104 000:285 JLINK_WriteReg(R9, 0x20000194)  returns 0x00 (0001ms, 0181ms total)
T2104 000:286 JLINK_WriteReg(R10, 0x00000000)  returns 0x00 (0000ms, 0181ms total)
T2104 000:286 JLINK_WriteReg(R11, 0x00000000)  returns 0x00 (0000ms, 0181ms total)
T2104 000:286 JLINK_WriteReg(R12, 0x00000000)  returns 0x00 (0000ms, 0181ms total)
T2104 000:286 JLINK_WriteReg(R13, 0x20001000)  returns 0x00 (0000ms, 0181ms total)
T2104 000:286 JLINK_WriteReg(R14, 0x20000001)  returns 0x00 (0000ms, 0181ms total)
T2104 000:286 JLINK_WriteReg(R15, 0x200000D4)  returns 0x00 (0000ms, 0181ms total)
T2104 000:286 JLINK_WriteReg(XPSR, 0x01000000)  returns 0x00 (0000ms, 0181ms total)
T2104 000:286 JLINK_WriteReg(MSP, 0x20001000)  returns 0x00 (0000ms, 0181ms total)
T2104 000:286 JLINK_WriteReg(PSP, 0x20001000)  returns 0x00 (0000ms, 0181ms total)
T2104 000:286 JLINK_WriteReg(CFBP, 0x00000000)  returns 0x00 (0000ms, 0181ms total)
T2104 000:286 JLINK_SetBPEx(Addr = 0x20000000, Type = 0xFFFFFFF2)  returns 0x00000003 (0000ms, 0181ms total)
T2104 000:286 JLINK_Go() (0001ms, 0182ms total)
T2104 000:287 JLINK_IsHalted()  returns FALSE (0001ms, 0183ms total)
T2104 000:404 JLINK_IsHalted()  returns FALSE (0001ms, 0183ms total)
T2104 000:435 JLINK_IsHalted()  returns FALSE (0001ms, 0183ms total)
T2104 000:445 JLINK_IsHalted()  returns FALSE (0000ms, 0182ms total)
T2104 000:447 JLINK_IsHalted()  returns FALSE (0000ms, 0182ms total)
T2104 000:449 JLINK_IsHalted()  returns FALSE (0001ms, 0183ms total)
T2104 000:451 JLINK_IsHalted()  returns FALSE (0000ms, 0182ms total)
T2104 000:453 JLINK_IsHalted()  returns FALSE (0001ms, 0183ms total)
T2104 000:511 JLINK_IsHalted()  returns FALSE (0000ms, 0182ms total)
T2104 000:513 JLINK_IsHalted()  returns FALSE (0000ms, 0182ms total)
T2104 000:522 JLINK_IsHalted()  returns FALSE (0001ms, 0183ms total)
T2104 000:524 JLINK_IsHalted()  returns FALSE (0001ms, 0183ms total)
T2104 000:527 JLINK_IsHalted()  returns FALSE (0000ms, 0182ms total)
T2104 000:542 JLINK_IsHalted()  returns FALSE (0000ms, 0182ms total)
T2104 000:544 JLINK_IsHalted()  returns FALSE (0000ms, 0182ms total)
T2104 000:546 JLINK_IsHalted()  returns FALSE (0001ms, 0183ms total)
T2104 000:555 JLINK_IsHalted()  returns FALSE (0001ms, 0183ms total)
T2104 000:557 JLINK_IsHalted()  returns FALSE (0001ms, 0183ms total)
T2104 000:559 JLINK_IsHalted()  returns FALSE (0001ms, 0183ms total)
T2104 000:623 JLINK_IsHalted()  returns FALSE (0000ms, 0182ms total)
T2104 000:625 JLINK_IsHalted()  returns FALSE (0000ms, 0182ms total)
T2104 000:627 JLINK_IsHalted()  returns FALSE (0000ms, 0182ms total)
T2104 000:629 JLINK_IsHalted()  returns FALSE (0000ms, 0182ms total)
T2104 000:638 JLINK_IsHalted()  returns FALSE (0000ms, 0182ms total)
T2104 000:648 JLINK_IsHalted() -- CPU_ReadMem(2 bytes @ 0x20000000)  returns TRUE (0003ms, 0185ms total)
T2104 000:651 JLINK_ReadReg(R15)  returns 0x20000000 (0000ms, 0182ms total)
T2104 000:651 JLINK_ClrBPEx(BPHandle = 0x00000003)  returns 0x00 (0000ms, 0182ms total)
T2104 000:651 JLINK_ReadReg(R0)  returns 0x00000000 (0000ms, 0182ms total)
T2104 000:652 JLINK_WriteReg(R0, 0x08004000)  returns 0x00 (0000ms, 0182ms total)
T2104 000:652 JLINK_WriteReg(R1, 0x00004000)  returns 0x00 (0000ms, 0182ms total)
T2104 000:652 JLINK_WriteReg(R2, 0x000000FF)  returns 0x00 (0000ms, 0182ms total)
T2104 000:652 JLINK_WriteReg(R3, 0x00000000)  returns 0x00 (0000ms, 0182ms total)
T2104 000:652 JLINK_WriteReg(R4, 0x00000000)  returns 0x00 (0000ms, 0182ms total)
T2104 000:652 JLINK_WriteReg(R5, 0x00000000)  returns 0x00 (0000ms, 0182ms total)
T2104 000:652 JLINK_WriteReg(R6, 0x00000000)  returns 0x00 (0000ms, 0182ms total)
T2104 000:652 JLINK_WriteReg(R7, 0x00000000)  returns 0x00 (0000ms, 0182ms total)
T2104 000:652 JLINK_WriteReg(R8, 0x00000000)  returns 0x00 (0000ms, 0182ms total)
T2104 000:652 JLINK_WriteReg(R9, 0x20000194)  returns 0x00 (0000ms, 0182ms total)
T2104 000:652 JLINK_WriteReg(R10, 0x00000000)  returns 0x00 (0000ms, 0182ms total)
T2104 000:652 JLINK_WriteReg(R11, 0x00000000)  returns 0x00 (0000ms, 0182ms total)
T2104 000:652 JLINK_WriteReg(R12, 0x00000000)  returns 0x00 (0000ms, 0182ms total)
T2104 000:652 JLINK_WriteReg(R13, 0x20001000)  returns 0x00 (0000ms, 0182ms total)
T2104 000:652 JLINK_WriteReg(R14, 0x20000001)  returns 0x00 (0000ms, 0182ms total)
T2104 000:653 JLINK_WriteReg(R15, 0x20000020)  returns 0x00 (0000ms, 0183ms total)
T2104 000:653 JLINK_WriteReg(XPSR, 0x01000000)  returns 0x00 (0000ms, 0183ms total)
T2104 000:653 JLINK_WriteReg(MSP, 0x20001000)  returns 0x00 (0000ms, 0183ms total)
T2104 000:653 JLINK_WriteReg(PSP, 0x20001000)  returns 0x00 (0000ms, 0183ms total)
T2104 000:653 JLINK_WriteReg(CFBP, 0x00000000)  returns 0x00 (0000ms, 0183ms total)
T2104 000:653 JLINK_SetBPEx(Addr = 0x20000000, Type = 0xFFFFFFF2)  returns 0x00000004 (0000ms, 0183ms total)
T2104 000:653 JLINK_Go() (0002ms, 0185ms total)
T2104 000:655 JLINK_IsHalted() -- CPU_ReadMem(2 bytes @ 0x20000000)  returns TRUE (0004ms, 0189ms total)
T2104 000:659 JLINK_ReadReg(R15)  returns 0x20000000 (0000ms, 0185ms total)
T2104 000:659 JLINK_ClrBPEx(BPHandle = 0x00000004)  returns 0x00 (0000ms, 0185ms total)
T2104 000:659 JLINK_ReadReg(R0)  returns 0x00000001 (0000ms, 0185ms total)
T2104 000:659 JLINK_WriteReg(R0, 0x08004000)  returns 0x00 (0000ms, 0185ms total)
T2104 000:659 JLINK_WriteReg(R1, 0x00004000)  returns 0x00 (0000ms, 0185ms total)
T2104 000:659 JLINK_WriteReg(R2, 0x000000FF)  returns 0x00 (0000ms, 0185ms total)
T2104 000:659 JLINK_WriteReg(R3, 0x00000000)  returns 0x00 (0000ms, 0185ms total)
T2104 000:659 JLINK_WriteReg(R4, 0x00000000)  returns 0x00 (0000ms, 0185ms total)
T2104 000:659 JLINK_WriteReg(R5, 0x00000000)  returns 0x00 (0000ms, 0185ms total)
T2104 000:659 JLINK_WriteReg(R6, 0x00000000)  returns 0x00 (0000ms, 0185ms total)
T2104 000:659 JLINK_WriteReg(R7, 0x00000000)  returns 0x00 (0000ms, 0185ms total)
T2104 000:659 JLINK_WriteReg(R8, 0x00000000)  returns 0x00 (0000ms, 0185ms total)
T2104 000:659 JLINK_WriteReg(R9, 0x20000194)  returns 0x00 (0000ms, 0185ms total)
T2104 000:659 JLINK_WriteReg(R10, 0x00000000)  returns 0x00 (0000ms, 0185ms total)
T2104 000:659 JLINK_WriteReg(R11, 0x00000000)  returns 0x00 (0000ms, 0185ms total)
T2104 000:659 JLINK_WriteReg(R12, 0x00000000)  returns 0x00 (0000ms, 0185ms total)
T2104 000:659 JLINK_WriteReg(R13, 0x20001000)  returns 0x00 (0000ms, 0185ms total)
T2104 000:659 JLINK_WriteReg(R14, 0x20000001)  returns 0x00 (0000ms, 0185ms total)
T2104 000:659 JLINK_WriteReg(R15, 0x200000D4)  returns 0x00 (0000ms, 0185ms total)
T2104 000:659 JLINK_WriteReg(XPSR, 0x01000000)  returns 0x00 (0000ms, 0185ms total)
T2104 000:659 JLINK_WriteReg(MSP, 0x20001000)  returns 0x00 (0001ms, 0186ms total)
T2104 000:660 JLINK_WriteReg(PSP, 0x20001000)  returns 0x00 (0000ms, 0186ms total)
T2104 000:660 JLINK_WriteReg(CFBP, 0x00000000)  returns 0x00 (0000ms, 0186ms total)
T2104 000:660 JLINK_SetBPEx(Addr = 0x20000000, Type = 0xFFFFFFF2)  returns 0x00000005 (0000ms, 0186ms total)
T2104 000:660 JLINK_Go() (0001ms, 0187ms total)
T2104 000:661 JLINK_IsHalted()  returns FALSE (0001ms, 0188ms total)
T2104 000:671 JLINK_IsHalted()  returns FALSE (0000ms, 0187ms total)
T2104 000:673 JLINK_IsHalted()  returns FALSE (0001ms, 0188ms total)
T2104 000:730 JLINK_IsHalted()  returns FALSE (0001ms, 0188ms total)
T2104 000:732 JLINK_IsHalted()  returns FALSE (0001ms, 0188ms total)
T2104 000:742 JLINK_IsHalted()  returns FALSE (0000ms, 0187ms total)
T2104 000:744 JLINK_IsHalted()  returns FALSE (0000ms, 0187ms total)
T2104 000:746 JLINK_IsHalted()  returns FALSE (0000ms, 0187ms total)
T2104 000:748 JLINK_IsHalted()  returns FALSE (0000ms, 0187ms total)
T2104 000:750 JLINK_IsHalted()  returns FALSE (0000ms, 0187ms total)
T2104 000:752 JLINK_IsHalted()  returns FALSE (0000ms, 0187ms total)
T2104 000:760 JLINK_IsHalted()  returns FALSE (0000ms, 0187ms total)
T2104 000:762 JLINK_IsHalted()  returns FALSE (0001ms, 0188ms total)
T2104 000:773 JLINK_IsHalted()  returns FALSE (0001ms, 0188ms total)
T2104 000:775 JLINK_IsHalted()  returns FALSE (0001ms, 0188ms total)
T2104 000:777 JLINK_IsHalted()  returns FALSE (0001ms, 0188ms total)
T2104 000:840 JLINK_IsHalted()  returns FALSE (0000ms, 0187ms total)
T2104 000:842 JLINK_IsHalted()  returns FALSE (0000ms, 0187ms total)
T2104 000:852 JLINK_IsHalted()  returns FALSE (0001ms, 0188ms total)
T2104 000:854 JLINK_IsHalted()  returns FALSE (0001ms, 0188ms total)
T2104 000:856 JLINK_IsHalted()  returns FALSE (0001ms, 0188ms total)
T2104 000:858 JLINK_IsHalted()  returns FALSE (0000ms, 0187ms total)
T2104 000:860 JLINK_IsHalted()  returns FALSE (0000ms, 0187ms total)
T2104 000:862 JLINK_IsHalted()  returns FALSE (0000ms, 0187ms total)
T2104 000:871 JLINK_IsHalted()  returns FALSE (0001ms, 0188ms total)
T2104 000:873 JLINK_IsHalted()  returns FALSE (0001ms, 0188ms total)
T2104 000:875 JLINK_IsHalted()  returns FALSE (0001ms, 0188ms total)
T2104 000:877 JLINK_IsHalted()  returns FALSE (0001ms, 0188ms total)
T2104 000:888 JLINK_IsHalted()  returns FALSE (0000ms, 0187ms total)
T2104 000:951 JLINK_IsHalted()  returns FALSE (0000ms, 0187ms total)
T2104 000:962 JLINK_IsHalted()  returns FALSE (0000ms, 0187ms total)
T2104 000:964 JLINK_IsHalted()  returns FALSE (0000ms, 0187ms total)
T2104 000:966 JLINK_IsHalted()  returns FALSE (0001ms, 0188ms total)
T2104 000:968 JLINK_IsHalted()  returns FALSE (0001ms, 0188ms total)
T2104 000:976 JLINK_IsHalted()  returns FALSE (0001ms, 0188ms total)
T2104 000:978 JLINK_IsHalted()  returns FALSE (0001ms, 0188ms total)
T2104 000:980 JLINK_IsHalted()  returns FALSE (0001ms, 0188ms total)
T2104 000:982 JLINK_IsHalted()  returns FALSE (0001ms, 0188ms total)
T2104 000:984 JLINK_IsHalted()  returns FALSE (0001ms, 0188ms total)
T2104 000:987 JLINK_IsHalted()  returns FALSE (0000ms, 0187ms total)
T2104 000:997 JLINK_IsHalted()  returns FALSE (0000ms, 0187ms total)
T2104 001:048 JLINK_IsHalted() -- CPU_ReadMem(2 bytes @ 0x20000000)  returns TRUE (0004ms, 0191ms total)
T2104 001:052 JLINK_ReadReg(R15)  returns 0x20000000 (0001ms, 0188ms total)
T2104 001:053 JLINK_ClrBPEx(BPHandle = 0x00000005)  returns 0x00 (0000ms, 0188ms total)
T2104 001:053 JLINK_ReadReg(R0)  returns 0x00000000 (0000ms, 0188ms total)
T2104 001:053 JLINK_WriteReg(R0, 0x00000001)  returns 0x00 (0000ms, 0188ms total)
T2104 001:053 JLINK_WriteReg(R1, 0x00004000)  returns 0x00 (0000ms, 0188ms total)
T2104 001:053 JLINK_WriteReg(R2, 0x000000FF)  returns 0x00 (0000ms, 0188ms total)
T2104 001:053 JLINK_WriteReg(R3, 0x00000000)  returns 0x00 (0000ms, 0188ms total)
T2104 001:053 JLINK_WriteReg(R4, 0x00000000)  returns 0x00 (0000ms, 0188ms total)
T2104 001:053 JLINK_WriteReg(R5, 0x00000000)  returns 0x00 (0000ms, 0188ms total)
T2104 001:053 JLINK_WriteReg(R6, 0x00000000)  returns 0x00 (0000ms, 0188ms total)
T2104 001:053 JLINK_WriteReg(R7, 0x00000000)  returns 0x00 (0000ms, 0188ms total)
T2104 001:053 JLINK_WriteReg(R8, 0x00000000)  returns 0x00 (0000ms, 0188ms total)
T2104 001:053 JLINK_WriteReg(R9, 0x20000194)  returns 0x00 (0000ms, 0188ms total)
T2104 001:053 JLINK_WriteReg(R10, 0x00000000)  returns 0x00 (0000ms, 0188ms total)
T2104 001:053 JLINK_WriteReg(R11, 0x00000000)  returns 0x00 (0000ms, 0188ms total)
T2104 001:053 JLINK_WriteReg(R12, 0x00000000)  returns 0x00 (0000ms, 0188ms total)
T2104 001:053 JLINK_WriteReg(R13, 0x20001000)  returns 0x00 (0000ms, 0188ms total)
T2104 001:053 JLINK_WriteReg(R14, 0x20000001)  returns 0x00 (0000ms, 0188ms total)
T2104 001:053 JLINK_WriteReg(R15, 0x2000008C)  returns 0x00 (0000ms, 0188ms total)
T2104 001:053 JLINK_WriteReg(XPSR, 0x01000000)  returns 0x00 (0000ms, 0188ms total)
T2104 001:053 JLINK_WriteReg(MSP, 0x20001000)  returns 0x00 (0000ms, 0188ms total)
T2104 001:053 JLINK_WriteReg(PSP, 0x20001000)  returns 0x00 (0001ms, 0189ms total)
T2104 001:054 JLINK_WriteReg(CFBP, 0x00000000)  returns 0x00 (0000ms, 0189ms total)
T2104 001:054 JLINK_SetBPEx(Addr = 0x20000000, Type = 0xFFFFFFF2)  returns 0x00000006 (0000ms, 0189ms total)
T2104 001:054 JLINK_Go() (0002ms, 0191ms total)
T2104 001:056 JLINK_IsHalted() -- CPU_ReadMem(2 bytes @ 0x20000000)  returns TRUE (0003ms, 0194ms total)
T2104 001:059 JLINK_ReadReg(R15)  returns 0x20000000 (0000ms, 0191ms total)
T2104 001:059 JLINK_ClrBPEx(BPHandle = 0x00000006)  returns 0x00 (0000ms, 0191ms total)
T2104 001:059 JLINK_ReadReg(R0)  returns 0x00000000 (0000ms, 0191ms total)
T2104 001:118 JLINK_WriteMem(0x20000000, 0x0198 Bytes, ...) -- Data:  00 BE 0A E0 0D 78 2D 06 68 40 08 24 40 00 00 D3 ... -- CPU_WriteMem(408 bytes @ 0x20000000)  returns 0x198 (0005ms, 0196ms total)
T2104 001:124 JLINK_WriteReg(R0, 0x08000000)  returns 0x00 (0000ms, 0196ms total)
T2104 001:124 JLINK_WriteReg(R1, 0x00B71B00)  returns 0x00 (0000ms, 0196ms total)
T2104 001:124 JLINK_WriteReg(R2, 0x00000002)  returns 0x00 (0000ms, 0196ms total)
T2104 001:124 JLINK_WriteReg(R3, 0x00000000)  returns 0x00 (0000ms, 0196ms total)
T2104 001:124 JLINK_WriteReg(R4, 0x00000000)  returns 0x00 (0000ms, 0196ms total)
T2104 001:124 JLINK_WriteReg(R5, 0x00000000)  returns 0x00 (0000ms, 0196ms total)
T2104 001:124 JLINK_WriteReg(R6, 0x00000000)  returns 0x00 (0000ms, 0196ms total)
T2104 001:124 JLINK_WriteReg(R7, 0x00000000)  returns 0x00 (0000ms, 0196ms total)
T2104 001:124 JLINK_WriteReg(R8, 0x00000000)  returns 0x00 (0000ms, 0196ms total)
T2104 001:124 JLINK_WriteReg(R9, 0x20000194)  returns 0x00 (0000ms, 0196ms total)
T2104 001:124 JLINK_WriteReg(R10, 0x00000000)  returns 0x00 (0000ms, 0196ms total)
T2104 001:124 JLINK_WriteReg(R11, 0x00000000)  returns 0x00 (0000ms, 0196ms total)
T2104 001:124 JLINK_WriteReg(R12, 0x00000000)  returns 0x00 (0000ms, 0196ms total)
T2104 001:124 JLINK_WriteReg(R13, 0x20001000)  returns 0x00 (0000ms, 0196ms total)
T2104 001:124 JLINK_WriteReg(R14, 0x20000001)  returns 0x00 (0000ms, 0196ms total)
T2104 001:124 JLINK_WriteReg(R15, 0x2000005E)  returns 0x00 (0000ms, 0196ms total)
T2104 001:124 JLINK_WriteReg(XPSR, 0x01000000)  returns 0x00 (0000ms, 0196ms total)
T2104 001:124 JLINK_WriteReg(MSP, 0x20001000)  returns 0x00 (0000ms, 0196ms total)
T2104 001:124 JLINK_WriteReg(PSP, 0x20001000)  returns 0x00 (0000ms, 0196ms total)
T2104 001:124 JLINK_WriteReg(CFBP, 0x00000000)  returns 0x00 (0000ms, 0196ms total)
T2104 001:124 JLINK_SetBPEx(Addr = 0x20000000, Type = 0xFFFFFFF2) -- CPU_ReadMem(4 bytes @ 0x20000000) -- CPU_WriteMem(4 bytes @ 0x20000000) -- CPU_ReadMem(4 bytes @ 0x20000000) -- CPU_WriteMem(4 bytes @ 0x20000000) -- CPU_ReadMem(2 bytes @ 0x20000000)  returns 0x00000007 (0003ms, 0199ms total)
T2104 001:127 JLINK_Go() -- CPU_WriteMem(2 bytes @ 0x20000000) (0002ms, 0201ms total)
T2104 001:129 JLINK_IsHalted() -- CPU_ReadMem(2 bytes @ 0x20000000)  returns TRUE (0003ms, 0204ms total)
T2104 001:132 JLINK_ReadReg(R15)  returns 0x20000000 (0000ms, 0201ms total)
T2104 001:132 JLINK_ClrBPEx(BPHandle = 0x00000007)  returns 0x00 (0001ms, 0202ms total)
T2104 001:133 JLINK_ReadReg(R0)  returns 0x00000000 (0000ms, 0202ms total)
T2104 001:133 JLINK_WriteMem(0x20000198, 0x0400 Bytes, ...) -- Data:  20 57 00 20 7D 02 00 08 89 4C 00 08 7B 3D 00 08 ... -- CPU_WriteMem(1024 bytes @ 0x20000198)  returns 0x400 (0012ms, 0214ms total)
T2104 001:145 JLINK_WriteReg(R0, 0x08000000)  returns 0x00 (0000ms, 0214ms total)
T2104 001:145 JLINK_WriteReg(R1, 0x00000400)  returns 0x00 (0000ms, 0214ms total)
T2104 001:145 JLINK_WriteReg(R2, 0x20000198)  returns 0x00 (0000ms, 0214ms total)
T2104 001:145 JLINK_WriteReg(R3, 0x00000000)  returns 0x00 (0000ms, 0214ms total)
T2104 001:145 JLINK_WriteReg(R4, 0x00000000)  returns 0x00 (0000ms, 0214ms total)
T2104 001:145 JLINK_WriteReg(R5, 0x00000000)  returns 0x00 (0000ms, 0214ms total)
T2104 001:145 JLINK_WriteReg(R6, 0x00000000)  returns 0x00 (0000ms, 0214ms total)
T2104 001:145 JLINK_WriteReg(R7, 0x00000000)  returns 0x00 (0000ms, 0214ms total)
T2104 001:145 JLINK_WriteReg(R8, 0x00000000)  returns 0x00 (0000ms, 0214ms total)
T2104 001:145 JLINK_WriteReg(R9, 0x20000194)  returns 0x00 (0000ms, 0214ms total)
T2104 001:145 JLINK_WriteReg(R10, 0x00000000)  returns 0x00 (0000ms, 0214ms total)
T2104 001:145 JLINK_WriteReg(R11, 0x00000000)  returns 0x00 (0000ms, 0214ms total)
T2104 001:145 JLINK_WriteReg(R12, 0x00000000)  returns 0x00 (0000ms, 0214ms total)
T2104 001:145 JLINK_WriteReg(R13, 0x20001000)  returns 0x00 (0000ms, 0214ms total)
T2104 001:145 JLINK_WriteReg(R14, 0x20000001)  returns 0x00 (0000ms, 0214ms total)
T2104 001:145 JLINK_WriteReg(R15, 0x20000120)  returns 0x00 (0000ms, 0214ms total)
T2104 001:145 JLINK_WriteReg(XPSR, 0x01000000)  returns 0x00 (0000ms, 0214ms total)
T2104 001:145 JLINK_WriteReg(MSP, 0x20001000)  returns 0x00 (0000ms, 0214ms total)
T2104 001:145 JLINK_WriteReg(PSP, 0x20001000)  returns 0x00 (0001ms, 0215ms total)
T2104 001:146 JLINK_WriteReg(CFBP, 0x00000000)  returns 0x00 (0000ms, 0215ms total)
T2104 001:146 JLINK_SetBPEx(Addr = 0x20000000, Type = 0xFFFFFFF2)  returns 0x00000008 (0000ms, 0215ms total)
T2104 001:146 JLINK_Go() (0001ms, 0216ms total)
T2104 001:147 JLINK_IsHalted()  returns FALSE (0001ms, 0217ms total)
T2104 001:229 JLINK_IsHalted() -- CPU_ReadMem(2 bytes @ 0x20000000)  returns TRUE (0004ms, 0220ms total)
T2104 001:233 JLINK_ReadReg(R15)  returns 0x20000000 (0000ms, 0216ms total)
T2104 001:233 JLINK_ClrBPEx(BPHandle = 0x00000008)  returns 0x00 (0000ms, 0216ms total)
T2104 001:233 JLINK_ReadReg(R0)  returns 0x00000000 (0000ms, 0216ms total)
T2104 001:235 JLINK_WriteMem(0x20000198, 0x0400 Bytes, ...) -- Data:  BD E8 F0 4F 00 F0 14 BA 00 98 01 22 40 00 00 23 ... -- CPU_WriteMem(1024 bytes @ 0x20000198)  returns 0x400 (0013ms, 0229ms total)
T2104 001:248 JLINK_WriteReg(R0, 0x08000400)  returns 0x00 (0000ms, 0229ms total)
T2104 001:248 JLINK_WriteReg(R1, 0x00000400)  returns 0x00 (0000ms, 0229ms total)
T2104 001:248 JLINK_WriteReg(R2, 0x20000198)  returns 0x00 (0000ms, 0229ms total)
T2104 001:248 JLINK_WriteReg(R3, 0x00000000)  returns 0x00 (0000ms, 0229ms total)
T2104 001:248 JLINK_WriteReg(R4, 0x00000000)  returns 0x00 (0000ms, 0229ms total)
T2104 001:248 JLINK_WriteReg(R5, 0x00000000)  returns 0x00 (0000ms, 0229ms total)
T2104 001:248 JLINK_WriteReg(R6, 0x00000000)  returns 0x00 (0000ms, 0229ms total)
T2104 001:248 JLINK_WriteReg(R7, 0x00000000)  returns 0x00 (0000ms, 0229ms total)
T2104 001:248 JLINK_WriteReg(R8, 0x00000000)  returns 0x00 (0000ms, 0229ms total)
T2104 001:248 JLINK_WriteReg(R9, 0x20000194)  returns 0x00 (0000ms, 0229ms total)
T2104 001:248 JLINK_WriteReg(R10, 0x00000000)  returns 0x00 (0000ms, 0229ms total)
T2104 001:248 JLINK_WriteReg(R11, 0x00000000)  returns 0x00 (0000ms, 0229ms total)
T2104 001:248 JLINK_WriteReg(R12, 0x00000000)  returns 0x00 (0000ms, 0229ms total)
T2104 001:248 JLINK_WriteReg(R13, 0x20001000)  returns 0x00 (0000ms, 0229ms total)
T2104 001:248 JLINK_WriteReg(R14, 0x20000001)  returns 0x00 (0000ms, 0229ms total)
T2104 001:248 JLINK_WriteReg(R15, 0x20000120)  returns 0x00 (0000ms, 0229ms total)
T2104 001:248 JLINK_WriteReg(XPSR, 0x01000000)  returns 0x00 (0000ms, 0229ms total)
T2104 001:248 JLINK_WriteReg(MSP, 0x20001000)  returns 0x00 (0000ms, 0229ms total)
T2104 001:248 JLINK_WriteReg(PSP, 0x20001000)  returns 0x00 (0000ms, 0229ms total)
T2104 001:248 JLINK_WriteReg(CFBP, 0x00000000)  returns 0x00 (0000ms, 0229ms total)
T2104 001:248 JLINK_SetBPEx(Addr = 0x20000000, Type = 0xFFFFFFF2)  returns 0x00000009 (0000ms, 0229ms total)
T2104 001:248 JLINK_Go() (0002ms, 0231ms total)
T2104 001:250 JLINK_IsHalted()  returns FALSE (0001ms, 0232ms total)
T2104 001:310 JLINK_IsHalted() -- CPU_ReadMem(2 bytes @ 0x20000000)  returns TRUE (0004ms, 0235ms total)
T2104 001:314 JLINK_ReadReg(R15)  returns 0x20000000 (0000ms, 0231ms total)
T2104 001:314 JLINK_ClrBPEx(BPHandle = 0x00000009)  returns 0x00 (0000ms, 0231ms total)
T2104 001:314 JLINK_ReadReg(R0)  returns 0x00000000 (0000ms, 0231ms total)
T2104 001:315 JLINK_WriteMem(0x20000198, 0x0400 Bytes, ...) -- Data:  0C 01 CB 1D 4F EA 00 61 4F EA 10 20 42 BF 00 20 ... -- CPU_WriteMem(1024 bytes @ 0x20000198)  returns 0x400 (0012ms, 0243ms total)
T2104 001:327 JLINK_WriteReg(R0, 0x08000800)  returns 0x00 (0000ms, 0243ms total)
T2104 001:327 JLINK_WriteReg(R1, 0x00000400)  returns 0x00 (0000ms, 0243ms total)
T2104 001:327 JLINK_WriteReg(R2, 0x20000198)  returns 0x00 (0000ms, 0243ms total)
T2104 001:327 JLINK_WriteReg(R3, 0x00000000)  returns 0x00 (0000ms, 0243ms total)
T2104 001:327 JLINK_WriteReg(R4, 0x00000000)  returns 0x00 (0000ms, 0243ms total)
T2104 001:327 JLINK_WriteReg(R5, 0x00000000)  returns 0x00 (0000ms, 0243ms total)
T2104 001:327 JLINK_WriteReg(R6, 0x00000000)  returns 0x00 (0000ms, 0243ms total)
T2104 001:328 JLINK_WriteReg(R7, 0x00000000)  returns 0x00 (0000ms, 0244ms total)
T2104 001:328 JLINK_WriteReg(R8, 0x00000000)  returns 0x00 (0000ms, 0244ms total)
T2104 001:328 JLINK_WriteReg(R9, 0x20000194)  returns 0x00 (0000ms, 0244ms total)
T2104 001:328 JLINK_WriteReg(R10, 0x00000000)  returns 0x00 (0000ms, 0244ms total)
T2104 001:328 JLINK_WriteReg(R11, 0x00000000)  returns 0x00 (0000ms, 0244ms total)
T2104 001:328 JLINK_WriteReg(R12, 0x00000000)  returns 0x00 (0000ms, 0244ms total)
T2104 001:328 JLINK_WriteReg(R13, 0x20001000)  returns 0x00 (0000ms, 0244ms total)
T2104 001:328 JLINK_WriteReg(R14, 0x20000001)  returns 0x00 (0000ms, 0244ms total)
T2104 001:328 JLINK_WriteReg(R15, 0x20000120)  returns 0x00 (0000ms, 0244ms total)
T2104 001:328 JLINK_WriteReg(XPSR, 0x01000000)  returns 0x00 (0000ms, 0244ms total)
T2104 001:328 JLINK_WriteReg(MSP, 0x20001000)  returns 0x00 (0000ms, 0244ms total)
T2104 001:328 JLINK_WriteReg(PSP, 0x20001000)  returns 0x00 (0000ms, 0244ms total)
T2104 001:328 JLINK_WriteReg(CFBP, 0x00000000)  returns 0x00 (0000ms, 0244ms total)
T2104 001:328 JLINK_SetBPEx(Addr = 0x20000000, Type = 0xFFFFFFF2)  returns 0x0000000A (0000ms, 0244ms total)
T2104 001:328 JLINK_Go() (0002ms, 0246ms total)
T2104 001:330 JLINK_IsHalted()  returns FALSE (0001ms, 0247ms total)
T2104 001:389 JLINK_IsHalted() -- CPU_ReadMem(2 bytes @ 0x20000000)  returns TRUE (0004ms, 0250ms total)
T2104 001:393 JLINK_ReadReg(R15)  returns 0x20000000 (0000ms, 0246ms total)
T2104 001:393 JLINK_ClrBPEx(BPHandle = 0x0000000A)  returns 0x00 (0000ms, 0246ms total)
T2104 001:393 JLINK_ReadReg(R0)  returns 0x00000000 (0000ms, 0246ms total)
T2104 001:394 JLINK_WriteMem(0x20000198, 0x0400 Bytes, ...) -- Data:  6B FE 03 F0 53 FA 00 F0 1D FB 00 21 12 48 02 F0 ... -- CPU_WriteMem(1024 bytes @ 0x20000198)  returns 0x400 (0012ms, 0258ms total)
T2104 001:406 JLINK_WriteReg(R0, 0x08000C00)  returns 0x00 (0000ms, 0258ms total)
T2104 001:406 JLINK_WriteReg(R1, 0x00000400)  returns 0x00 (0000ms, 0258ms total)
T2104 001:406 JLINK_WriteReg(R2, 0x20000198)  returns 0x00 (0000ms, 0258ms total)
T2104 001:406 JLINK_WriteReg(R3, 0x00000000)  returns 0x00 (0000ms, 0258ms total)
T2104 001:406 JLINK_WriteReg(R4, 0x00000000)  returns 0x00 (0000ms, 0258ms total)
T2104 001:406 JLINK_WriteReg(R5, 0x00000000)  returns 0x00 (0000ms, 0258ms total)
T2104 001:406 JLINK_WriteReg(R6, 0x00000000)  returns 0x00 (0000ms, 0258ms total)
T2104 001:406 JLINK_WriteReg(R7, 0x00000000)  returns 0x00 (0000ms, 0258ms total)
T2104 001:406 JLINK_WriteReg(R8, 0x00000000)  returns 0x00 (0000ms, 0258ms total)
T2104 001:406 JLINK_WriteReg(R9, 0x20000194)  returns 0x00 (0000ms, 0258ms total)
T2104 001:406 JLINK_WriteReg(R10, 0x00000000)  returns 0x00 (0000ms, 0258ms total)
T2104 001:406 JLINK_WriteReg(R11, 0x00000000)  returns 0x00 (0000ms, 0258ms total)
T2104 001:406 JLINK_WriteReg(R12, 0x00000000)  returns 0x00 (0000ms, 0258ms total)
T2104 001:406 JLINK_WriteReg(R13, 0x20001000)  returns 0x00 (0000ms, 0258ms total)
T2104 001:406 JLINK_WriteReg(R14, 0x20000001)  returns 0x00 (0000ms, 0258ms total)
T2104 001:406 JLINK_WriteReg(R15, 0x20000120)  returns 0x00 (0000ms, 0258ms total)
T2104 001:406 JLINK_WriteReg(XPSR, 0x01000000)  returns 0x00 (0000ms, 0258ms total)
T2104 001:406 JLINK_WriteReg(MSP, 0x20001000)  returns 0x00 (0000ms, 0258ms total)
T2104 001:406 JLINK_WriteReg(PSP, 0x20001000)  returns 0x00 (0000ms, 0258ms total)
T2104 001:406 JLINK_WriteReg(CFBP, 0x00000000)  returns 0x00 (0000ms, 0258ms total)
T2104 001:406 JLINK_SetBPEx(Addr = 0x20000000, Type = 0xFFFFFFF2)  returns 0x0000000B (0000ms, 0258ms total)
T2104 001:406 JLINK_Go() (0002ms, 0260ms total)
T2104 001:408 JLINK_IsHalted()  returns FALSE (0001ms, 0261ms total)
T2104 001:418 JLINK_IsHalted() -- CPU_ReadMem(2 bytes @ 0x20000000)  returns TRUE (0003ms, 0263ms total)
T2104 001:421 JLINK_ReadReg(R15)  returns 0x20000000 (0001ms, 0261ms total)
T2104 001:422 JLINK_ClrBPEx(BPHandle = 0x0000000B)  returns 0x00 (0000ms, 0261ms total)
T2104 001:422 JLINK_ReadReg(R0)  returns 0x00000000 (0000ms, 0261ms total)
T2104 001:422 JLINK_WriteMem(0x20000198, 0x0400 Bytes, ...) -- Data:  79 FE 2A 4E 00 24 DF ED 2F 8A 80 36 4F F4 FA 67 ... -- CPU_WriteMem(1024 bytes @ 0x20000198)  returns 0x400 (0012ms, 0273ms total)
T2104 001:434 JLINK_WriteReg(R0, 0x08001000)  returns 0x00 (0000ms, 0273ms total)
T2104 001:435 JLINK_WriteReg(R1, 0x00000400)  returns 0x00 (0000ms, 0273ms total)
T2104 001:435 JLINK_WriteReg(R2, 0x20000198)  returns 0x00 (0000ms, 0273ms total)
T2104 001:435 JLINK_WriteReg(R3, 0x00000000)  returns 0x00 (0000ms, 0273ms total)
T2104 001:435 JLINK_WriteReg(R4, 0x00000000)  returns 0x00 (0000ms, 0273ms total)
T2104 001:435 JLINK_WriteReg(R5, 0x00000000)  returns 0x00 (0000ms, 0273ms total)
T2104 001:435 JLINK_WriteReg(R6, 0x00000000)  returns 0x00 (0000ms, 0273ms total)
T2104 001:435 JLINK_WriteReg(R7, 0x00000000)  returns 0x00 (0000ms, 0273ms total)
T2104 001:435 JLINK_WriteReg(R8, 0x00000000)  returns 0x00 (0000ms, 0273ms total)
T2104 001:435 JLINK_WriteReg(R9, 0x20000194)  returns 0x00 (0000ms, 0273ms total)
T2104 001:435 JLINK_WriteReg(R10, 0x00000000)  returns 0x00 (0000ms, 0273ms total)
T2104 001:435 JLINK_WriteReg(R11, 0x00000000)  returns 0x00 (0000ms, 0273ms total)
T2104 001:435 JLINK_WriteReg(R12, 0x00000000)  returns 0x00 (0000ms, 0273ms total)
T2104 001:435 JLINK_WriteReg(R13, 0x20001000)  returns 0x00 (0000ms, 0273ms total)
T2104 001:435 JLINK_WriteReg(R14, 0x20000001)  returns 0x00 (0000ms, 0273ms total)
T2104 001:435 JLINK_WriteReg(R15, 0x20000120)  returns 0x00 (0000ms, 0273ms total)
T2104 001:435 JLINK_WriteReg(XPSR, 0x01000000)  returns 0x00 (0000ms, 0273ms total)
T2104 001:435 JLINK_WriteReg(MSP, 0x20001000)  returns 0x00 (0000ms, 0273ms total)
T2104 001:435 JLINK_WriteReg(PSP, 0x20001000)  returns 0x00 (0000ms, 0273ms total)
T2104 001:435 JLINK_WriteReg(CFBP, 0x00000000)  returns 0x00 (0000ms, 0273ms total)
T2104 001:435 JLINK_SetBPEx(Addr = 0x20000000, Type = 0xFFFFFFF2)  returns 0x0000000C (0000ms, 0273ms total)
T2104 001:435 JLINK_Go() (0002ms, 0275ms total)
T2104 001:437 JLINK_IsHalted()  returns FALSE (0000ms, 0275ms total)
T2104 001:502 JLINK_IsHalted() -- CPU_ReadMem(2 bytes @ 0x20000000)  returns TRUE (0004ms, 0279ms total)
T2104 001:506 JLINK_ReadReg(R15)  returns 0x20000000 (0000ms, 0275ms total)
T2104 001:506 JLINK_ClrBPEx(BPHandle = 0x0000000C)  returns 0x00 (0000ms, 0275ms total)
T2104 001:506 JLINK_ReadReg(R0)  returns 0x00000000 (0000ms, 0275ms total)
T2104 001:507 JLINK_WriteMem(0x20000198, 0x0400 Bytes, ...) -- Data:  04 F0 14 FF B7 F9 0C 00 D9 ED 14 0A 00 EE 10 0A ... -- CPU_WriteMem(1024 bytes @ 0x20000198)  returns 0x400 (0012ms, 0287ms total)
T2104 001:519 JLINK_WriteReg(R0, 0x08001400)  returns 0x00 (0000ms, 0287ms total)
T2104 001:519 JLINK_WriteReg(R1, 0x00000400)  returns 0x00 (0000ms, 0287ms total)
T2104 001:519 JLINK_WriteReg(R2, 0x20000198)  returns 0x00 (0000ms, 0287ms total)
T2104 001:519 JLINK_WriteReg(R3, 0x00000000)  returns 0x00 (0000ms, 0287ms total)
T2104 001:519 JLINK_WriteReg(R4, 0x00000000)  returns 0x00 (0000ms, 0287ms total)
T2104 001:519 JLINK_WriteReg(R5, 0x00000000)  returns 0x00 (0000ms, 0287ms total)
T2104 001:519 JLINK_WriteReg(R6, 0x00000000)  returns 0x00 (0000ms, 0287ms total)
T2104 001:519 JLINK_WriteReg(R7, 0x00000000)  returns 0x00 (0000ms, 0287ms total)
T2104 001:519 JLINK_WriteReg(R8, 0x00000000)  returns 0x00 (0000ms, 0287ms total)
T2104 001:519 JLINK_WriteReg(R9, 0x20000194)  returns 0x00 (0000ms, 0287ms total)
T2104 001:519 JLINK_WriteReg(R10, 0x00000000)  returns 0x00 (0001ms, 0288ms total)
T2104 001:520 JLINK_WriteReg(R11, 0x00000000)  returns 0x00 (0000ms, 0288ms total)
T2104 001:520 JLINK_WriteReg(R12, 0x00000000)  returns 0x00 (0000ms, 0288ms total)
T2104 001:520 JLINK_WriteReg(R13, 0x20001000)  returns 0x00 (0000ms, 0288ms total)
T2104 001:520 JLINK_WriteReg(R14, 0x20000001)  returns 0x00 (0000ms, 0288ms total)
T2104 001:520 JLINK_WriteReg(R15, 0x20000120)  returns 0x00 (0000ms, 0288ms total)
T2104 001:520 JLINK_WriteReg(XPSR, 0x01000000)  returns 0x00 (0000ms, 0288ms total)
T2104 001:520 JLINK_WriteReg(MSP, 0x20001000)  returns 0x00 (0000ms, 0288ms total)
T2104 001:520 JLINK_WriteReg(PSP, 0x20001000)  returns 0x00 (0000ms, 0288ms total)
T2104 001:520 JLINK_WriteReg(CFBP, 0x00000000)  returns 0x00 (0000ms, 0288ms total)
T2104 001:520 JLINK_SetBPEx(Addr = 0x20000000, Type = 0xFFFFFFF2)  returns 0x0000000D (0000ms, 0288ms total)
T2104 001:520 JLINK_Go() (0002ms, 0290ms total)
T2104 001:522 JLINK_IsHalted()  returns FALSE (0000ms, 0290ms total)
T2104 001:530 JLINK_IsHalted() -- CPU_ReadMem(2 bytes @ 0x20000000)  returns TRUE (0004ms, 0294ms total)
T2104 001:534 JLINK_ReadReg(R15)  returns 0x20000000 (0000ms, 0290ms total)
T2104 001:534 JLINK_ClrBPEx(BPHandle = 0x0000000D)  returns 0x00 (0000ms, 0290ms total)
T2104 001:534 JLINK_ReadReg(R0)  returns 0x00000000 (0000ms, 0290ms total)
T2104 001:535 JLINK_WriteMem(0x20000198, 0x0400 Bytes, ...) -- Data:  70 47 70 47 70 47 70 B5 04 00 4F F0 00 05 03 D0 ... -- CPU_WriteMem(1024 bytes @ 0x20000198)  returns 0x400 (0012ms, 0302ms total)
T2104 001:547 JLINK_WriteReg(R0, 0x08001800)  returns 0x00 (0000ms, 0302ms total)
T2104 001:547 JLINK_WriteReg(R1, 0x00000400)  returns 0x00 (0000ms, 0302ms total)
T2104 001:547 JLINK_WriteReg(R2, 0x20000198)  returns 0x00 (0000ms, 0302ms total)
T2104 001:547 JLINK_WriteReg(R3, 0x00000000)  returns 0x00 (0000ms, 0302ms total)
T2104 001:547 JLINK_WriteReg(R4, 0x00000000)  returns 0x00 (0000ms, 0302ms total)
T2104 001:547 JLINK_WriteReg(R5, 0x00000000)  returns 0x00 (0000ms, 0302ms total)
T2104 001:547 JLINK_WriteReg(R6, 0x00000000)  returns 0x00 (0000ms, 0302ms total)
T2104 001:547 JLINK_WriteReg(R7, 0x00000000)  returns 0x00 (0000ms, 0302ms total)
T2104 001:547 JLINK_WriteReg(R8, 0x00000000)  returns 0x00 (0000ms, 0302ms total)
T2104 001:547 JLINK_WriteReg(R9, 0x20000194)  returns 0x00 (0000ms, 0302ms total)
T2104 001:547 JLINK_WriteReg(R10, 0x00000000)  returns 0x00 (0000ms, 0302ms total)
T2104 001:547 JLINK_WriteReg(R11, 0x00000000)  returns 0x00 (0000ms, 0302ms total)
T2104 001:547 JLINK_WriteReg(R12, 0x00000000)  returns 0x00 (0000ms, 0302ms total)
T2104 001:547 JLINK_WriteReg(R13, 0x20001000)  returns 0x00 (0000ms, 0302ms total)
T2104 001:547 JLINK_WriteReg(R14, 0x20000001)  returns 0x00 (0001ms, 0303ms total)
T2104 001:548 JLINK_WriteReg(R15, 0x20000120)  returns 0x00 (0000ms, 0303ms total)
T2104 001:548 JLINK_WriteReg(XPSR, 0x01000000)  returns 0x00 (0000ms, 0303ms total)
T2104 001:548 JLINK_WriteReg(MSP, 0x20001000)  returns 0x00 (0000ms, 0303ms total)
T2104 001:548 JLINK_WriteReg(PSP, 0x20001000)  returns 0x00 (0000ms, 0303ms total)
T2104 001:548 JLINK_WriteReg(CFBP, 0x00000000)  returns 0x00 (0000ms, 0303ms total)
T2104 001:548 JLINK_SetBPEx(Addr = 0x20000000, Type = 0xFFFFFFF2)  returns 0x0000000E (0000ms, 0303ms total)
T2104 001:548 JLINK_Go() (0002ms, 0305ms total)
T2104 001:550 JLINK_IsHalted()  returns FALSE (0000ms, 0305ms total)
T2104 001:622 JLINK_IsHalted() -- CPU_ReadMem(2 bytes @ 0x20000000)  returns TRUE (0005ms, 0310ms total)
T2104 001:627 JLINK_ReadReg(R15)  returns 0x20000000 (0000ms, 0305ms total)
T2104 001:627 JLINK_ClrBPEx(BPHandle = 0x0000000E)  returns 0x00 (0000ms, 0305ms total)
T2104 001:627 JLINK_ReadReg(R0)  returns 0x00000000 (0000ms, 0305ms total)
T2104 001:627 JLINK_WriteMem(0x20000198, 0x0400 Bytes, ...) -- Data:  41 F0 04 01 D7 E7 00 BF 00 F0 EC FC C0 1B 0A 28 ... -- CPU_WriteMem(1024 bytes @ 0x20000198)  returns 0x400 (0012ms, 0317ms total)
T2104 001:639 JLINK_WriteReg(R0, 0x08001C00)  returns 0x00 (0000ms, 0317ms total)
T2104 001:639 JLINK_WriteReg(R1, 0x00000400)  returns 0x00 (0000ms, 0317ms total)
T2104 001:639 JLINK_WriteReg(R2, 0x20000198)  returns 0x00 (0000ms, 0317ms total)
T2104 001:639 JLINK_WriteReg(R3, 0x00000000)  returns 0x00 (0000ms, 0317ms total)
T2104 001:639 JLINK_WriteReg(R4, 0x00000000)  returns 0x00 (0001ms, 0318ms total)
T2104 001:640 JLINK_WriteReg(R5, 0x00000000)  returns 0x00 (0000ms, 0318ms total)
T2104 001:640 JLINK_WriteReg(R6, 0x00000000)  returns 0x00 (0000ms, 0318ms total)
T2104 001:640 JLINK_WriteReg(R7, 0x00000000)  returns 0x00 (0000ms, 0318ms total)
T2104 001:640 JLINK_WriteReg(R8, 0x00000000)  returns 0x00 (0000ms, 0318ms total)
T2104 001:640 JLINK_WriteReg(R9, 0x20000194)  returns 0x00 (0000ms, 0318ms total)
T2104 001:640 JLINK_WriteReg(R10, 0x00000000)  returns 0x00 (0000ms, 0318ms total)
T2104 001:640 JLINK_WriteReg(R11, 0x00000000)  returns 0x00 (0000ms, 0318ms total)
T2104 001:640 JLINK_WriteReg(R12, 0x00000000)  returns 0x00 (0000ms, 0318ms total)
T2104 001:640 JLINK_WriteReg(R13, 0x20001000)  returns 0x00 (0000ms, 0318ms total)
T2104 001:640 JLINK_WriteReg(R14, 0x20000001)  returns 0x00 (0000ms, 0318ms total)
T2104 001:640 JLINK_WriteReg(R15, 0x20000120)  returns 0x00 (0000ms, 0318ms total)
T2104 001:640 JLINK_WriteReg(XPSR, 0x01000000)  returns 0x00 (0000ms, 0318ms total)
T2104 001:640 JLINK_WriteReg(MSP, 0x20001000)  returns 0x00 (0000ms, 0318ms total)
T2104 001:640 JLINK_WriteReg(PSP, 0x20001000)  returns 0x00 (0000ms, 0318ms total)
T2104 001:640 JLINK_WriteReg(CFBP, 0x00000000)  returns 0x00 (0000ms, 0318ms total)
T2104 001:640 JLINK_SetBPEx(Addr = 0x20000000, Type = 0xFFFFFFF2)  returns 0x0000000F (0000ms, 0318ms total)
T2104 001:640 JLINK_Go() (0002ms, 0320ms total)
T2104 001:642 JLINK_IsHalted()  returns FALSE (0001ms, 0321ms total)
T2104 001:651 JLINK_IsHalted() -- CPU_ReadMem(2 bytes @ 0x20000000)  returns TRUE (0004ms, 0324ms total)
T2104 001:655 JLINK_ReadReg(R15)  returns 0x20000000 (0000ms, 0320ms total)
T2104 001:655 JLINK_ClrBPEx(BPHandle = 0x0000000F)  returns 0x00 (0000ms, 0320ms total)
T2104 001:655 JLINK_ReadReg(R0)  returns 0x00000000 (0000ms, 0320ms total)
T2104 001:656 JLINK_WriteMem(0x20000198, 0x0400 Bytes, ...) -- Data:  38 00 32 28 0E D0 84 F8 38 70 00 BF 84 F8 39 80 ... -- CPU_WriteMem(1024 bytes @ 0x20000198)  returns 0x400 (0012ms, 0332ms total)
T2104 001:668 JLINK_WriteReg(R0, 0x08002000)  returns 0x00 (0000ms, 0332ms total)
T2104 001:668 JLINK_WriteReg(R1, 0x00000400)  returns 0x00 (0000ms, 0332ms total)
